
SetupTitle, 2502-IdVgg-Vg
PrimitiveTest, I/V Sweep
TestParameter, Context.MainFrame, B1500A
TestParameter, Channel.UnitType, SMU, SMU, SMU, SMU
TestParameter, Channel.Unit, SMU4:HR, SMU1:HP, SMU2:HR, SMU5:HR
TestParameter, Channel.IName, IS, ID, IG, ITG
TestParameter, Channel.VName, VS, VD, VG, VTG
TestParameter, Channel.Mode, COMMON, V, V, V
TestParameter, Channel.Func, CONST, CONST, VAR2, VAR1
TestParameter, Channel.Index, 
TestParameter, Channel.Time, 
TestParameter, Measurement.Port.Unit, SMU4:HR, SMU1:HP, SMU2:HR, SMU5:HR
TestParameter, Measurement.Port.SeriesResistor, NONE, NONE, NONE, NONE
TestParameter, Measurement.Port.Filter, ON, ON, ON, ON
TestParameter, Measurement.Port.OutputVoltageComparison, 0, 0, 0, 0
TestParameter, Measurement.Primary.Locus, Single
TestParameter, Measurement.Primary.Scale, LINEAR
TestParameter, Measurement.Primary.Start, 3
TestParameter, Measurement.Primary.Stop, -3
TestParameter, Measurement.Primary.Step, -0.02
TestParameter, Measurement.Primary.Compliance, 0.001
TestParameter, Measurement.Primary.PowerCompliance, 0
TestParameter, Measurement.Aborting.Condition, CONTINUE AT ANY
TestParameter, Measurement.PostOutput.Value, START
TestParameter, Measurement.PostOutput.Retention, OFF
TestParameter, Measurement.Secondary.Start, 0.3
TestParameter, Measurement.Secondary.Count, 34
TestParameter, Measurement.Secondary.Step, -0.1
TestParameter, Measurement.Secondary.Compliance, 0.001
TestParameter, Measurement.Secondary.PowerCompliance, 0
TestParameter, Measurement.Bias.Source, 0, -0.05, 0.3, 3
TestParameter, Measurement.Bias.Compliance, 0.1, 0.001, 0.001, 0.001
TestParameter, Measurement.Monitor.Unit, SMU1:HP, SMU2:HR, SMU4:HR, SMU5:HR
TestParameter, Measurement.Monitor.Adc, HR ADC, HS ADC, HS ADC, HS ADC
TestParameter, Measurement.Monitor.Measurement, Compliance Side, Compliance Side, Compliance Side, Compliance Side
TestParameter, Measurement.Monitor.RangingMode, AUTO, LIMITED, LIMITED, LIMITED
TestParameter, Measurement.Monitor.RangeBoundary, , 10nA, 10nA, 10nA
TestParameter, Measurement.Monitor.RangeRating, BY FULL RANGE, BY FULL RANGE, BY FULL RANGE, BY FULL RANGE
TestParameter, Measurement.Monitor.RangeRatingCoeff, 50, 50, 50, 50
TestParameter, Measurement.Timing.Hold, 0
TestParameter, Measurement.Timing.Delay, 0
TestParameter, Measurement.Adc.HighSpeed.Mode, PLC
TestParameter, Measurement.Adc.HighSpeed.Coeff, 1
TestParameter, Measurement.Adc.HighResolution.AutoZero, OFF
TestParameter, Measurement.Adc.HighResolution.Mode, AUTO
TestParameter, Measurement.Adc.HighResolution.Coeff, 6
TestParameter, Measurement.WaitTime.Source.Coeff, 1
TestParameter, Measurement.WaitTime.Source.Offset, 0
TestParameter, Measurement.WaitTime.Monitor.Coeff, 1
TestParameter, Measurement.WaitTime.Monitor.Offset, 0
TestParameter, Function.Analysis.Name, grad
TestParameter, Function.Analysis.Unit, 
TestParameter, Function.Analysis.Definition, diff(ID)
TestParameter, Output.Graph.Enabled, true
TestParameter, Output.Graph.AutoScaling, false
TestParameter, Output.Graph.XAxis.Data, VTG
TestParameter, Output.Graph.XAxis.Scale, Linear
TestParameter, Output.Graph.XAxis.Left, 3
TestParameter, Output.Graph.XAxis.Right, -3
TestParameter, Output.Graph.XAxis.RunTimeAutoScale, false
TestParameter, Output.Graph.YAxis.Data, ID, ID, grad
TestParameter, Output.Graph.YAxis.Scale, Log, Linear, Linear
TestParameter, Output.Graph.YAxis.Bottom, 0.001, -0.001, 0
TestParameter, Output.Graph.YAxis.Top, 0.01, 0.001, 1
TestParameter, Output.Graph.YAxis.Group, , , 
TestParameter, Output.Graph.YAxis.RunTimeAutoScale, true, true, false
TestParameter, Output.List.Data, VG, VD, VTG, ID, IS, IG, ITG
TestParameter, AutoAnalysis.Interpolation, false
TestParameter, AutoAnalysis.Var2StepCount, 1
TestParameter, AutoAnalysis.Var2StepScript, 
TestParameter, AutoAnalysis.Line1.Enabled, false
TestParameter, AutoAnalysis.Line1.Type, 1
TestParameter, AutoAnalysis.Line1.Fix, True
TestParameter, AutoAnalysis.Line1.YAxis, 0
TestParameter, AutoAnalysis.Line1.Point1.Type, 0
TestParameter, AutoAnalysis.Line1.Point1.XY.X, 
TestParameter, AutoAnalysis.Line1.Point1.XY.Y, 
TestParameter, AutoAnalysis.Line1.Point1.Data.Var, 
TestParameter, AutoAnalysis.Line1.Point1.Data.Condition, 
TestParameter, AutoAnalysis.Line1.Point1.Data.Start, false
TestParameter, AutoAnalysis.Line1.Point1.Data.StartVar, 
TestParameter, AutoAnalysis.Line1.Point1.Data.StartCondition, 
TestParameter, AutoAnalysis.Line1.Point2.Type, 0
TestParameter, AutoAnalysis.Line1.Point2.XY.X, 
TestParameter, AutoAnalysis.Line1.Point2.XY.Y, 
TestParameter, AutoAnalysis.Line1.Point2.Data.Var, 
TestParameter, AutoAnalysis.Line1.Point2.Data.Condition, 
TestParameter, AutoAnalysis.Line1.Point2.Data.Start, false
TestParameter, AutoAnalysis.Line1.Point2.Data.StartVar, 
TestParameter, AutoAnalysis.Line1.Point2.Data.StartCondition, 
TestParameter, AutoAnalysis.Line1.GradientExpr, 0
TestParameter, AutoAnalysis.Line2.Enabled, false
TestParameter, AutoAnalysis.Line2.Type, 1
TestParameter, AutoAnalysis.Line2.Fix, True
TestParameter, AutoAnalysis.Line2.YAxis, 0
TestParameter, AutoAnalysis.Line2.Point1.Type, 0
TestParameter, AutoAnalysis.Line2.Point1.XY.X, 
TestParameter, AutoAnalysis.Line2.Point1.XY.Y, 
TestParameter, AutoAnalysis.Line2.Point1.Data.Var, 
TestParameter, AutoAnalysis.Line2.Point1.Data.Condition, 
TestParameter, AutoAnalysis.Line2.Point1.Data.Start, false
TestParameter, AutoAnalysis.Line2.Point1.Data.StartVar, 
TestParameter, AutoAnalysis.Line2.Point1.Data.StartCondition, 
TestParameter, AutoAnalysis.Line2.Point2.Type, 0
TestParameter, AutoAnalysis.Line2.Point2.XY.X, 
TestParameter, AutoAnalysis.Line2.Point2.XY.Y, 
TestParameter, AutoAnalysis.Line2.Point2.Data.Var, 
TestParameter, AutoAnalysis.Line2.Point2.Data.Condition, 
TestParameter, AutoAnalysis.Line2.Point2.Data.Start, false
TestParameter, AutoAnalysis.Line2.Point2.Data.StartVar, 
TestParameter, AutoAnalysis.Line2.Point2.Data.StartCondition, 
TestParameter, AutoAnalysis.Line2.GradientExpr, 0
TestParameter, AutoAnalysis.Marker.Enabled, false
TestParameter, AutoAnalysis.Marker.Data.Var, 
TestParameter, AutoAnalysis.Marker.Data.Condition, 
TestParameter, AutoAnalysis.Marker.Data.Start, false
TestParameter, AutoAnalysis.Marker.Data.StartVar, 
TestParameter, AutoAnalysis.Marker.Data.StartCondition, 
MetaData, TestRecord.EntryPoint, true
MetaData, TestRecord.RecordTime, 03/03/2025 19:36:19
MetaData, TestRecord.TestTarget, IdVgg_Vgg3tom3
MetaData, TestRecord.IterationIndex, 4
MetaData, TestRecord.Preservation, true
MetaData, TestRecord.Flag, 
MetaData, TestRecord.Remarks, 
MetaData, TestRecord.LinkKey, 33b689c1-2f7d-4429-b7f3-5916715657f4
MetaData, TestRecord.Parameters, 
Dimension1, 301, 301, 301, 301, 301, 301, 301, 301
Dimension2, 34, 34, 34, 34, 34, 34, 34, 34
DataName, VTG, VG, VD, ID, IG, IS, ITG, grad
DataValue, 3, 0.3, -0.05, 2.0000000000000003E-14, 0, 0, 5E-13, 0
DataValue, 2.98, 0.3, -0.05, 2.4000000000000004E-13, 0, -5E-13, 5E-13, 2.2000000000000002E-13
DataValue, 2.96, 0.3, -0.05, 3.4E-13, 0, 0, 5E-13, 9.9999999999999978E-14
DataValue, 2.94, 0.3, -0.05, 1.6000000000000003E-13, 0, -5E-13, 5E-13, -1.8E-13
DataValue, 2.92, 0.3, -0.05, 1.6000000000000003E-13, 0, 0, 0, 0
DataValue, 2.9, 0.3, -0.05, -2.0000000000000003E-14, 0, -5E-13, 0, -1.8000000000000004E-13
DataValue, 2.88, 0.3, -0.05, -3.5E-13, 0, 0, 0, -3.3E-13
DataValue, 2.86, 0.3, -0.05, 1.4E-13, 0, -5E-13, 0, 4.9E-13
DataValue, 2.84, 0.3, -0.05, 1.6000000000000003E-13, 0, 0, 5E-13, 2.0000000000000016E-14
DataValue, 2.82, 0.3, -0.05, -5E-14, 0, 0, 0, -2.1000000000000001E-13
DataValue, 2.8000000000000003, 0.3, -0.05, -3.0000000000000005E-14, 0, 0, 5E-13, 1.9999999999999997E-14
DataValue, 2.7800000000000002, 0.3, -0.05, -1E-13, 0, -5E-13, 5E-13, -7E-14
DataValue, 2.7600000000000002, 0.3, -0.05, 3.0000000000000003E-13, 0, -5E-13, 0, 4E-13
DataValue, 2.74, 0.3, -0.05, 3.0000000000000005E-14, 0, 5E-13, 0, -2.7E-13
DataValue, 2.72, 0.3, -0.05, -1.7E-13, 0, -5E-13, 0, -2E-13
DataValue, 2.7, 0.3, -0.05, 0, -5E-13, -5E-13, 0, 1.7E-13
DataValue, 2.68, 0.3, -0.05, 1.9000000000000002E-13, 0, -5E-13, 0, 1.9000000000000002E-13
DataValue, 2.66, 0.3, -0.05, -6.0000000000000009E-14, 0, -5E-13, 0, -2.5000000000000005E-13
DataValue, 2.64, 0.3, -0.05, -1.0000000000000002E-14, 0, -5E-13, 0, 5.0000000000000008E-14
DataValue, 2.62, 0.3, -0.05, -1.5000000000000002E-13, 0, 0, 0, -1.4E-13
DataValue, 2.6, 0.3, -0.05, 4E-13, 0, 0, 0, 5.5000000000000008E-13
DataValue, 2.58, 0.3, -0.05, 3.6000000000000003E-13, 0, 0, 0, -3.9999999999999981E-14
DataValue, 2.56, 0.3, -0.05, 8.0000000000000013E-14, 0, -5E-13, 0, -2.8E-13
DataValue, 2.54, 0.3, -0.05, 1.4E-13, 0, 0, 0, 6E-14
DataValue, 2.52, 0.3, -0.05, 1.0000000000000002E-14, 0, -5E-13, 0, -1.3E-13
DataValue, 2.5, 0.3, -0.05, 6.0000000000000009E-14, 0, 0, 0, 5.0000000000000008E-14
DataValue, 2.48, 0.3, -0.05, -2.2000000000000002E-13, -5E-13, -5E-13, 0, -2.8E-13
DataValue, 2.46, 0.3, -0.05, -3.0000000000000005E-14, 0, 0, 0, 1.9000000000000002E-13
DataValue, 2.44, 0.3, -0.05, 2.3000000000000003E-13, 0, 0, 0, 2.6000000000000005E-13
DataValue, 2.42, 0.3, -0.05, 2.0000000000000003E-14, 0, 0, 0, -2.1000000000000001E-13
DataValue, 2.4, 0.3, -0.05, 6.0000000000000009E-14, 0, -5E-13, 0, 4.0000000000000006E-14
DataValue, 2.38, 0.3, -0.05, 3.0000000000000003E-13, 0, -5E-13, 0, 2.4000000000000004E-13
DataValue, 2.36, 0.3, -0.05, 4.2000000000000003E-13, 0, -5E-13, 0, 1.2E-13
DataValue, 2.34, 0.3, -0.05, -6.0000000000000009E-14, -5E-13, 0, 0, -4.8000000000000008E-13
DataValue, 2.32, 0.3, -0.05, -7E-14, -5E-13, 0, 0, -9.9999999999999953E-15
DataValue, 2.3000000000000003, 0.3, -0.05, 2.4000000000000004E-13, 0, -5E-13, 0, 3.1000000000000004E-13
DataValue, 2.2800000000000002, 0.3, -0.05, 1.1000000000000001E-13, 0, -5E-13, 0, -1.3000000000000003E-13
DataValue, 2.2600000000000002, 0.3, -0.05, 1.0000000000000002E-14, 0, -5E-13, 0, -1E-13
DataValue, 2.24, 0.3, -0.05, 1.6000000000000003E-13, 0, -5E-13, 0, 1.5000000000000002E-13
DataValue, 2.22, 0.3, -0.05, 3.4E-13, 0, -5E-13, 0, 1.8E-13
DataValue, 2.2, 0.3, -0.05, 7E-14, 0, -5E-13, 0, -2.7E-13
DataValue, 2.18, 0.3, -0.05, 2.3000000000000003E-13, 0, -5E-13, 0, 1.6000000000000003E-13
DataValue, 2.16, 0.3, -0.05, -1.9000000000000002E-13, 0, 0, 0, -4.2000000000000003E-13
DataValue, 2.14, 0.3, -0.05, 2E-13, 0, -5E-13, 0, 3.9000000000000005E-13
DataValue, 2.12, 0.3, -0.05, 3.5E-13, 0, -5E-13, 0, 1.5000000000000002E-13
DataValue, 2.1, 0.3, -0.05, -7E-14, 0, 0, 0, -4.2000000000000003E-13
DataValue, 2.08, 0.3, -0.05, -3.2000000000000005E-13, 0, -5E-13, 0, -2.5000000000000005E-13
DataValue, 2.06, 0.3, -0.05, -8.0000000000000013E-14, 0, 0, 0, 2.4000000000000004E-13
DataValue, 2.04, 0.3, -0.05, 2.8E-13, 0, 0, 0, 3.6000000000000003E-13
DataValue, 2.02, 0.3, -0.05, -1.2000000000000002E-13, 0, 5E-13, 0, -4E-13
DataValue, 2, 0.3, -0.05, -6.0000000000000009E-14, 0, -1E-12, 0, 6.0000000000000009E-14
DataValue, 1.98, 0.3, -0.05, -1.2000000000000002E-13, 0, 0, 0, -6.0000000000000009E-14
DataValue, 1.96, 0.3, -0.05, 2.6E-13, 0, -5E-13, 0, 3.8E-13
DataValue, 1.94, 0.3, -0.05, 2.2000000000000002E-13, 0, 0, 0, -3.9999999999999981E-14
DataValue, 1.92, 0.3, -0.05, -1.9000000000000002E-13, 0, -5E-13, 0, -4.1000000000000007E-13
DataValue, 1.9000000000000001, 0.3, -0.05, -3.3E-13, 0, 0, 0, -1.3999999999999998E-13
DataValue, 1.8800000000000001, 0.3, -0.05, 1.4E-13, -5E-13, 0, 0, 4.7E-13
DataValue, 1.86, 0.3, -0.05, 1.8000000000000002E-13, 0, -5E-13, 0, 4.0000000000000006E-14
DataValue, 1.84, 0.3, -0.05, 2.0000000000000003E-14, 0, 0, 0, -1.6000000000000003E-13
DataValue, 1.82, 0.3, -0.05, 1.4E-13, 0, -5E-13, 0, 1.2E-13
DataValue, 1.8, 0.3, -0.05, 1.3E-13, 0, -5E-13, 0, -1.0000000000000008E-14
DataValue, 1.78, 0.3, -0.05, 2.1000000000000001E-13, 0, -5E-13, 0, 8.0000000000000013E-14
DataValue, 1.76, 0.3, -0.05, 3.3E-13, 0, 0, 0, 1.2E-13
DataValue, 1.74, 0.3, -0.05, 5E-14, 0, -5E-13, 0, -2.8E-13
DataValue, 1.72, 0.3, -0.05, 1.2000000000000002E-13, 0, 0, 0, 7.0000000000000017E-14
DataValue, 1.7, 0.3, -0.05, 6.5000000000000006E-13, -5E-13, 0, 0, 5.3000000000000006E-13
DataValue, 1.68, 0.3, -0.05, 1.1000000000000001E-13, 0, 5E-13, 0, -5.4E-13
DataValue, 1.6600000000000001, 0.3, -0.05, -2.0000000000000003E-14, 0, -5E-13, 0, -1.3E-13
DataValue, 1.6400000000000001, 0.3, -0.05, -2.7E-13, 0, -1E-12, 0, -2.5E-13
DataValue, 1.62, 0.3, -0.05, 3.4E-13, 0, -5E-13, 0, 6.1E-13
DataValue, 1.6, 0.3, -0.05, 5E-14, -5E-13, 0, 0, -2.9000000000000003E-13
DataValue, 1.58, 0.3, -0.05, 1.8000000000000002E-13, 0, 0, 0, 1.3E-13
DataValue, 1.56, 0.3, -0.05, -2.4000000000000004E-13, 0, 0, 0, -4.2000000000000003E-13
DataValue, 1.54, 0.3, -0.05, 5E-14, 0, 0, 5E-13, 2.9000000000000003E-13
DataValue, 1.52, 0.3, -0.05, 2.2000000000000002E-13, 0, -5E-13, 0, 1.7000000000000003E-13
DataValue, 1.5, 0.3, -0.05, -2.2000000000000002E-13, 0, -5E-13, 0, -4.4000000000000004E-13
DataValue, 1.48, 0.3, -0.05, -1.3E-13, 0, 0, 0, 9.000000000000002E-14
DataValue, 1.46, 0.3, -0.05, -1.2000000000000002E-13, 0, 0, 0, 9.9999999999999826E-15
DataValue, 1.44, 0.3, -0.05, 4.7E-13, 0, 0, 0, 5.9E-13
DataValue, 1.42, 0.3, -0.05, 4.4000000000000004E-13, 0, 0, 0, -2.9999999999999973E-14
DataValue, 1.4000000000000001, 0.3, -0.05, 5E-14, 0, 0, 0, -3.9000000000000005E-13
DataValue, 1.3800000000000001, 0.3, -0.05, -2.1000000000000001E-13, 0, -5E-13, 0, -2.6E-13
DataValue, 1.36, 0.3, -0.05, 8.0000000000000013E-14, 0, 0, 0, 2.9000000000000003E-13
DataValue, 1.34, 0.3, -0.05, 2.1000000000000001E-13, -5E-13, -5E-13, 0, 1.3E-13
DataValue, 1.32, 0.3, -0.05, -6.0000000000000009E-14, 0, -5E-13, 0, -2.7E-13
DataValue, 1.3, 0.3, -0.05, 1.8000000000000002E-13, 0, 0, 0, 2.4000000000000004E-13
DataValue, 1.28, 0.3, -0.05, 9.0000000000000008E-14, 0, -1E-12, 0, -9.0000000000000008E-14
DataValue, 1.26, 0.3, -0.05, 8.0000000000000013E-14, 0, -5E-13, 0, -9.9999999999999953E-15
DataValue, 1.24, 0.3, -0.05, 5.1E-13, 0, -5E-13, 0, 4.3000000000000004E-13
DataValue, 1.22, 0.3, -0.05, 2.0000000000000003E-14, 0, -5E-13, 0, -4.9E-13
DataValue, 1.2, 0.3, -0.05, -2.5E-13, 0, 0, 0, -2.7E-13
DataValue, 1.18, 0.3, -0.05, 4.0000000000000006E-14, 0, -5E-13, 0, 2.9E-13
DataValue, 1.16, 0.3, -0.05, 3.3E-13, 0, 0, 0, 2.9E-13
DataValue, 1.1400000000000001, 0.3, -0.05, 1.6000000000000003E-13, 0, 0, 0, -1.6999999999999998E-13
DataValue, 1.12, 0.3, -0.05, -9.0000000000000008E-14, 0, 5E-13, 0, -2.5000000000000005E-13
DataValue, 1.1, 0.3, -0.05, 5E-14, 0, 0, 0, 1.4E-13
DataValue, 1.08, 0.3, -0.05, 8.0000000000000013E-14, 0, 0, 0, 3.0000000000000011E-14
DataValue, 1.06, 0.3, -0.05, 6.0000000000000009E-14, 0, -5E-13, 0, -2.0000000000000003E-14
DataValue, 1.04, 0.3, -0.05, -3.1000000000000004E-13, 0, 0, 5E-13, -3.7000000000000004E-13
DataValue, 1.02, 0.3, -0.05, 3.3E-13, 0, 0, 0, 6.400000000000001E-13
DataValue, 1, 0.3, -0.05, -7E-14, -5E-13, 0, 0, -4E-13
DataValue, 0.98, 0.3, -0.05, 1.1000000000000001E-13, 0, 0, 5E-13, 1.8000000000000002E-13
DataValue, 0.96, 0.3, -0.05, -1.2000000000000002E-13, 0, 0, 0, -2.3000000000000003E-13
DataValue, 0.94000000000000006, 0.3, -0.05, 2.8E-13, 0, -5E-13, 0, 4E-13
DataValue, 0.92, 0.3, -0.05, 2.7E-13, 0, 0, 0, -1.0000000000000008E-14
DataValue, 0.9, 0.3, -0.05, -2E-13, 0, 0, 0, -4.7E-13
DataValue, 0.88, 0.3, -0.05, -1E-13, 0, 0, 0, 1E-13
DataValue, 0.86, 0.3, -0.05, 5E-14, 0, -5E-13, 0, 1.5000000000000002E-13
DataValue, 0.84, 0.3, -0.05, 3.0000000000000003E-13, 0, -5E-13, 0, 2.5000000000000005E-13
DataValue, 0.82000000000000006, 0.3, -0.05, -2.2000000000000002E-13, -5E-13, 0, 0, -5.2E-13
DataValue, 0.8, 0.3, -0.05, 7E-14, 0, 0, 0, 2.9000000000000003E-13
DataValue, 0.78, 0.3, -0.05, 4.6000000000000006E-13, 0, 0, 0, 3.9000000000000005E-13
DataValue, 0.76, 0.3, -0.05, 2.4000000000000004E-13, 0, 0, 0, -2.2000000000000002E-13
DataValue, 0.74, 0.3, -0.05, -2.3000000000000003E-13, 0, -5E-13, 0, -4.7E-13
DataValue, 0.72, 0.3, -0.05, -2.6E-13, 0, -5E-13, 0, -2.9999999999999973E-14
DataValue, 0.70000000000000007, 0.3, -0.05, 1E-13, 0, 0, 0, 3.6E-13
DataValue, 0.68, 0.3, -0.05, 1.1000000000000001E-13, 0, 0, 0, 1.0000000000000008E-14
DataValue, 0.66, 0.3, -0.05, 1.1000000000000001E-13, 0, 0, 0, 0
DataValue, 0.64, 0.3, -0.05, 2.2000000000000002E-13, -5E-13, 0, 0, 1.1000000000000001E-13
DataValue, 0.62, 0.3, -0.05, 3.2000000000000005E-13, 0, 0, 0, 1.0000000000000003E-13
DataValue, 0.6, 0.3, -0.05, 1.6000000000000003E-13, 0, -5E-13, 0, -1.6000000000000003E-13
DataValue, 0.58, 0.3, -0.05, -2.5E-13, 0, 0, 0, -4.1E-13
DataValue, 0.56, 0.3, -0.05, -1.2000000000000002E-13, 0, 0, 0, 1.2999999999999998E-13
DataValue, 0.54, 0.3, -0.05, 0, 0, -5E-13, 0, 1.2000000000000002E-13
DataValue, 0.52, 0.3, -0.05, 6.0000000000000009E-14, 0, -5E-13, 0, 6.0000000000000009E-14
DataValue, 0.5, 0.3, -0.05, -1.4E-13, 0, 0, 0, -2E-13
DataValue, 0.48, 0.3, -0.05, 1.7E-13, 0, 0, 0, 3.1E-13
DataValue, 0.46, 0.3, -0.05, 2.3000000000000003E-13, 0, 0, 0, 6.0000000000000022E-14
DataValue, 0.44, 0.3, -0.05, -2.7E-13, 0, -5E-13, 0, -5.0000000000000009E-13
DataValue, 0.42, 0.3, -0.05, -2.0000000000000003E-14, 0, 0, 0, 2.5E-13
DataValue, 0.4, 0.3, -0.05, 7E-14, 0, 0, 0, 9.0000000000000008E-14
DataValue, 0.38, 0.3, -0.05, 4.5000000000000005E-13, 5E-13, 0, 5E-13, 3.8000000000000005E-13
DataValue, 0.36, 0.3, -0.05, 2.9000000000000003E-13, 0, -5E-13, 0, -1.6000000000000003E-13
DataValue, 0.34, 0.3, -0.05, 0, 0, 0, 0, -2.9000000000000003E-13
DataValue, 0.32, 0.3, -0.05, 2.9000000000000003E-13, 0, -5E-13, 0, 2.9000000000000003E-13
DataValue, 0.3, 0.3, -0.05, 1.6000000000000003E-13, 0, 0, 0, -1.3E-13
DataValue, 0.28, 0.3, -0.05, -1.3E-13, 0, -5E-13, 0, -2.9000000000000003E-13
DataValue, 0.26, 0.3, -0.05, 1.6000000000000003E-13, 0, 0, 0, 2.9000000000000003E-13
DataValue, 0.24, 0.3, -0.05, 3.3E-13, -5E-13, -5E-13, 5E-13, 1.6999999999999998E-13
DataValue, 0.22, 0.3, -0.05, 1.0000000000000002E-14, 5E-13, -5E-13, 5E-13, -3.2E-13
DataValue, 0.2, 0.3, -0.05, 7E-14, 0, 0, 0, 6E-14
DataValue, 0.18, 0.3, -0.05, 1.4E-13, 0, -5E-13, 0, 7E-14
DataValue, 0.16, 0.3, -0.05, -5E-14, 0, 0, 0, -1.9E-13
DataValue, 0.14, 0.3, -0.05, -1.7E-13, 0, -5E-13, 0, -1.2E-13
DataValue, 0.12, 0.3, -0.05, -1.8000000000000002E-13, 0, 0, 0, -1.0000000000000008E-14
DataValue, 0.1, 0.3, -0.05, 3.5E-13, 0, 0, 0, 5.3000000000000006E-13
DataValue, 0.08, 0.3, -0.05, -1E-13, 0, -5E-13, 0, -4.5E-13
DataValue, 0.06, 0.3, -0.05, 3.0000000000000005E-14, 0, -5E-13, 0, 1.3E-13
DataValue, 0.04, 0.3, -0.05, 3.0000000000000005E-14, 0, -5E-13, 0, 0
DataValue, 0.02, 0.3, -0.05, 4.2000000000000003E-13, 0, -5E-13, 0, 3.9E-13
DataValue, 0, 0.3, -0.05, 2.5E-13, 0, -5E-13, -5E-13, -1.7000000000000003E-13
DataValue, -0.02, 0.3, -0.05, 1.3E-13, 0, -5E-13, 0, -1.2E-13
DataValue, -0.04, 0.3, -0.05, 6.0000000000000009E-14, 0, -5E-13, 0, -6.9999999999999992E-14
DataValue, -0.06, 0.3, -0.05, 2.8E-13, 0, -5E-13, 0, 2.2000000000000002E-13
DataValue, -0.08, 0.3, -0.05, 9.0000000000000008E-14, 0, -5E-13, 0, -1.9E-13
DataValue, -0.1, 0.3, -0.05, 9.0000000000000008E-14, 0, -5E-13, 0, 0
DataValue, -0.12, 0.3, -0.05, 3.2000000000000005E-13, 0, -5E-13, 0, 2.3000000000000003E-13
DataValue, -0.14, 0.3, -0.05, 1.0000000000000002E-14, 0, -5E-13, 0, -3.1000000000000004E-13
DataValue, -0.16, 0.3, -0.05, -1E-13, 0, -5E-13, 0, -1.1000000000000001E-13
DataValue, -0.18, 0.3, -0.05, -4.4000000000000004E-13, 0, -5E-13, 0, -3.4000000000000007E-13
DataValue, -0.2, 0.3, -0.05, 1.2000000000000002E-13, -5E-13, -5E-13, 0, 5.6E-13
DataValue, -0.22, 0.3, -0.05, -9.0000000000000008E-14, 0, -5E-13, 0, -2.1000000000000001E-13
DataValue, -0.24, 0.3, -0.05, -3.0000000000000005E-14, 0, 0, 0, 6E-14
DataValue, -0.26, 0.3, -0.05, 1E-13, 0, 0, 0, 1.3E-13
DataValue, -0.28, 0.3, -0.05, 2.1000000000000001E-13, 0, 0, 0, 1.1000000000000001E-13
